
T23F8 000:359 SEGGER J-Link V4.40c Log File (0000ms, 0358ms total)
T23F8 000:359 DLL Compiled: Jan 24 2012 09:30:33 (0000ms, 0358ms total)
T23F8 000:359 Logging started @ 2018-09-17 15:58 (0000ms, 0358ms total)
T23F8 000:360 JLINK_SetWarnOutHandler(...) (0000ms, 0359ms total)
T23F8 000:360 JLINK_OpenEx(...)
Firmware: J-Link ARM V8 compiled Nov 28 2014 13:44:46
Hardware: V8.00
Feature(s): RDI,FlashDL,FlashBP,JFlash,GDBFULL  returns O.K. (0129ms, 0359ms total)
T23F8 000:489 JLINK_SetErrorOutHandler(...) (0000ms, 0488ms total)
T23F8 000:489 JLINK_ExecCommand("Device = STM32F103RC", ...)
                JLINK_ExecCommand("map ram 0x20000000 - 0x2000BFFF", ...)  returns 0x00 (0000ms, 0000ms total)
                JLINK_AddMirrorAreaEx(Addr = 0x00000000, Size = 0x00000000) (0000ms, 0000ms total)
              Device "STM32F103RC" selected (256 KB flash, 48 KB RAM).  returns 0x00 (0000ms, 0488ms total)
T23F8 000:490 JLINK_ExecCommand("ProjectFile = "F:\SZP\项目\单灯控制器\程序软件\BootLoader\MDK-ARM\JLinkSettings.ini"", ...)  returns 0x00 (0000ms, 0488ms total)
T23F8 000:490 JLINK_ExecCommand("DisableConnectionTimeout", ...)  returns 0x00 (0000ms, 0488ms total)
T23F8 000:491 JLINK_TIF_Select(JLINKARM_TIF_SWD)  returns 0x00 (0000ms, 0488ms total)
T23F8 000:492 JLINK_SetSpeed(2000) (0000ms, 0488ms total)
T23F8 000:492 JLINK_GetHardwareVersion()  returns 0x13880 (0000ms, 0488ms total)
T23F8 000:492 JLINK_GetDLLVersion()  returns 44003 (0000ms, 0488ms total)
T23F8 000:492 JLINK_GetFirmwareString(...) (0000ms, 0488ms total)
T23F8 000:492 JLINK_GetDLLVersion()  returns 44003 (0000ms, 0488ms total)
T23F8 000:492 JLINK_GetCompileDateTime() (0000ms, 0488ms total)
T23F8 000:492 JLINK_GetFirmwareString(...) (0000ms, 0488ms total)
T23F8 000:492 JLINK_GetHardwareVersion()  returns 0x13880 (0000ms, 0488ms total)
T23F8 000:493 JLINK_GetId() >0x108 TIF>Found SWD-DP with ID 0x1BA01477 >0x33 TIF> >0x33 TIF> >0x35 TIF> >0x33 TIF> >0x35 TIF> >0x33 TIF> >0x33 TIF> >0x35 TIF> >0x33 TIF> >0x33 TIF> >0x35 TIF> >0x33 TIF> >0x33 TIF> >0x35 TIF> >0x33 TIF> >0x33 TIF> >0x35 TIF> >0x35 TIF> >0x35 TIF> >0x35 TIF> >0x35 TIF> >0x33 TIF> >0x33 TIF> >0x35 TIF> >0x33 TIF> >0x33 TIF> >0x33 TIF>TPIU fitted.ETM fitted. >0x35 TIF> >0x33 TIF> >0x33 TIF> >0x35 TIF> >0x33 TIF> >0x33 TIF>  FPUnit: 6 code (BP) slots and 2 literal slots
 >0x35 TIF> >0x33 TIF> >0x33 TIF> >0x35 TIF> >0x35 TIF> >0x35 TIF> >0x33 TIF> >0x33 TIF> >0x35 TIF> >0x33 TIF> >0x33 TIF> >0x35 TIF> >0x33 TIF> >0x33 TIF>Found Cortex-M3 r1p1, Little endian. >0x33 TIF>  returns 0x1BA01477 (0012ms, 0488ms total)
T23F8 000:505 JLINK_GetDebugInfo(0x100) -- Value=0xE00FF003  returns 0x00 (0000ms, 0500ms total)
T23F8 000:505 JLINK_ReadMem (0xE00FFFF0, 0x0010 Bytes, ...) -- CPU is running -- CPU_ReadMem(16 bytes @ 0xE00FFFF0) -- Data:  0D 00 00 00 10 00 00 00 05 00 00 00 B1 00 00 00  returns 0x00 (0001ms, 0500ms total)
T23F8 000:506 JLINK_ReadMem (0xE00FFFD0, 0x0020 Bytes, ...) -- CPU is running -- CPU_ReadMem(32 bytes @ 0xE00FFFD0) -- Data:  00 00 00 00 00 00 00 00 00 00 00 00 00 00 00 00 ...  returns 0x00 (0001ms, 0501ms total)
T23F8 000:507 JLINK_ReadMem (0xE00FF000, 0x0018 Bytes, ...) -- CPU is running -- CPU_ReadMem(24 bytes @ 0xE00FF000) -- Data:  03 F0 F0 FF 03 20 F0 FF 03 30 F0 FF 03 10 F0 FF ...  returns 0x00 (0001ms, 0502ms total)
T23F8 000:508 JLINK_ReadMemU32(0xE000ED00, 0x0001 Items, ...) -- CPU is running -- CPU_ReadMem(4 bytes @ 0xE000ED00) -- Data:  31 C2 1F 41  returns 0x01 (0001ms, 0503ms total)
T23F8 000:509 JLINK_SetResetType(JLINKARM_RESET_TYPE_NORMAL)  returns JLINKARM_RESET_TYPE_NORMAL (0000ms, 0504ms total)
T23F8 000:509 JLINK_Reset() >0x108 TIF>Found SWD-DP with ID 0x1BA01477 >0x33 TIF> >0x33 TIF> >0x35 TIF> >0x33 TIF> >0x35 TIF> >0x33 TIF> >0x33 TIF> >0x35 TIF> >0x33 TIF> >0x33 TIF> >0x35 TIF> >0x33 TIF> >0x33 TIF> >0x35 TIF> >0x33 TIF> >0x33 TIF> >0x35 TIF> >0x35 TIF> >0x35 TIF> >0x35 TIF> >0x35 TIF> >0x33 TIF> >0x33 TIF> >0x35 TIF> >0x33 TIF> >0x33 TIF> >0x33 TIF>TPIU fitted.ETM fitted. >0x35 TIF> >0x33 TIF> >0x33 TIF> >0x35 TIF> >0x33 TIF> >0x33 TIF>  FPUnit: 6 code (BP) slots and 2 literal slots
 >0x35 TIF> >0x33 TIF> >0x33 TIF> >0x35 TIF> >0x33 TIF> >0x33 TIF> >0x35 TIF> >0x33 TIF> >0x33 TIF> >0x35 TIF> >0x33 TIF> >0x33 TIF>Found Cortex-M3 r1p1, Little endian. -- CPU is running -- CPU_WriteMem(4 bytes @ 0xE000EDF0) -- CPU is running -- CPU_WriteMem(4 bytes @ 0xE000EDFC) >0x35 TIF> -- CPU is running -- CPU_WriteMem(4 bytes @ 0xE000ED0C) -- CPU is running -- CPU_ReadMem(4 bytes @ 0xE000EDF0) -- CPU is running -- CPU_ReadMem(4 bytes @ 0xE000EDF0) -- CPU is running
 -- CPU_WriteMem(4 bytes @ 0xE000EDF0) -- CPU is running -- CPU_WriteMem(4 bytes @ 0xE000EDFC) -- CPU is running -- CPU_ReadMem(4 bytes @ 0xE000EDF0) (0027ms, 0504ms total)
T23F8 000:536 JLINK_ReadReg(R15)  returns 0x0800023C (0000ms, 0531ms total)
T23F8 000:536 JLINK_ReadReg(XPSR)  returns 0x01000000 (0000ms, 0531ms total)
T23F8 000:536 JLINK_Halt()  returns 0x00 (0000ms, 0531ms total)
T23F8 000:536 JLINK_IsHalted()  returns TRUE (0000ms, 0531ms total)
T23F8 000:536 JLINK_ReadMemU32(0xE000EDF0, 0x0001 Items, ...) -- CPU_ReadMem(4 bytes @ 0xE000EDF0) -- Data:  03 00 03 00  returns 0x01 (0001ms, 0531ms total)
T23F8 000:537 JLINK_WriteU32(0xE000EDF0, 0xA05F0003) -- CPU_WriteMem(4 bytes @ 0xE000EDF0)  returns 0x00 (0000ms, 0532ms total)
T23F8 000:537 JLINK_WriteU32(0xE000EDFC, 0x01000000) -- CPU_WriteMem(4 bytes @ 0xE000EDFC)  returns 0x00 (0001ms, 0532ms total)
T23F8 000:538 JLINK_GetHWStatus(...)  returns 0x00 (0000ms, 0533ms total)
T23F8 000:539 JLINK_GetNumBPUnits(Type = 0xFFFFFF00)  returns 0x06 (0000ms, 0534ms total)
T23F8 000:539 JLINK_GetNumBPUnits(Type = 0xF0)  returns 0x2000 (0000ms, 0534ms total)
T23F8 000:539 JLINK_GetNumWPUnits()  returns 0x04 (0000ms, 0534ms total)
T23F8 000:539 JLINK_GetSpeed()  returns 0x7D0 (0000ms, 0534ms total)
T23F8 000:539 JLINK_ReadMemU32(0xE000E004, 0x0001 Items, ...) -- CPU_ReadMem(4 bytes @ 0xE000E004) -- Data:  01 00 00 00  returns 0x01 (0001ms, 0534ms total)
T23F8 000:540 JLINK_ReadMemU32(0xE000E004, 0x0001 Items, ...) -- CPU_ReadMem(4 bytes @ 0xE000E004) -- Data:  01 00 00 00  returns 0x01 (0001ms, 0535ms total)
T23F8 000:541 JLINK_WriteMem(0xE0001000, 0x001C Bytes, ...) -- Data:  01 00 00 00 00 00 00 00 00 00 00 00 00 00 00 00 ... -- CPU_WriteMem(28 bytes @ 0xE0001000)  returns 0x1C (0000ms, 0536ms total)
T23F8 000:541 JLINK_ReadMem (0xE0001000, 0x001C Bytes, ...) -- CPU_ReadMem(28 bytes @ 0xE0001000) -- Data:  01 00 00 40 00 00 00 00 00 00 00 00 00 00 00 00 ...  returns 0x00 (0001ms, 0536ms total)
T23F8 000:542 JLINK_ReadReg(R15)  returns 0x0800023C (0000ms, 0537ms total)
T23F8 000:542 JLINK_ReadReg(XPSR)  returns 0x01000000 (0000ms, 0537ms total)
T23F8 000:613 JLINK_SetResetType(JLINKARM_RESET_TYPE_NORMAL)  returns JLINKARM_RESET_TYPE_NORMAL (0000ms, 0537ms total)
T23F8 000:613 JLINK_Reset() >0x108 TIF>Found SWD-DP with ID 0x1BA01477 >0x33 TIF> >0x33 TIF> >0x35 TIF> >0x33 TIF> >0x35 TIF> >0x33 TIF> >0x33 TIF> >0x35 TIF> >0x33 TIF> >0x33 TIF> >0x35 TIF> >0x33 TIF> >0x33 TIF> >0x35 TIF> >0x33 TIF> >0x33 TIF> >0x35 TIF> >0x35 TIF> >0x35 TIF> >0x35 TIF> >0x35 TIF> >0x33 TIF> >0x33 TIF> >0x35 TIF> >0x33 TIF> >0x33 TIF> >0x33 TIF>TPIU fitted.ETM fitted. >0x35 TIF> >0x33 TIF> >0x33 TIF> >0x35 TIF> >0x33 TIF> >0x33 TIF>  FPUnit: 6 code (BP) slots and 2 literal slots
 >0x35 TIF> >0x33 TIF> >0x33 TIF> >0x35 TIF> >0x33 TIF> >0x33 TIF> >0x35 TIF> >0x33 TIF> >0x33 TIF> >0x35 TIF> >0x33 TIF> >0x33 TIF>Found Cortex-M3 r1p1, Little endian. -- CPU_WriteMem(4 bytes @ 0xE000EDF0) -- CPU_WriteMem(4 bytes @ 0xE000EDFC) >0x35 TIF> -- CPU_WriteMem(4 bytes @ 0xE000ED0C) -- CPU_ReadMem(4 bytes @ 0xE000EDF0) -- CPU_ReadMem(4 bytes @ 0xE000EDF0) -- CPU_WriteMem(4 bytes @ 0xE000EDF0) -- CPU_WriteMem(4 bytes @ 0xE000EDFC) -- CPU is running -- CPU_ReadMem(4 bytes @ 0xE000EDF0)
 (0029ms, 0537ms total)
T23F8 000:642 JLINK_ReadReg(R15)  returns 0x0800023C (0000ms, 0566ms total)
T23F8 000:642 JLINK_ReadReg(XPSR)  returns 0x01000000 (0000ms, 0566ms total)
T23F8 000:792 JLINK_ReadMem (0x0800023C, 0x003C Bytes, ...) -- CPU_ReadMem(128 bytes @ 0x08000200) -- Updating C cache (128 bytes @ 0x08000200) -- Read from C cache (60 bytes @ 0x0800023C) -- Data:  09 48 80 47 09 48 00 47 FE E7 FE E7 FE E7 FE E7 ...  returns 0x00 (0003ms, 0566ms total)
T23F8 000:807 JLINK_ReadMem (0xE000E004, 0x0004 Bytes, ...) -- CPU_ReadMem(4 bytes @ 0xE000E004) -- Data:  01 00 00 00  returns 0x00 (0001ms, 0569ms total)
T23F8 001:613 JLINK_ReadMem (0x20000210, 0x0004 Bytes, ...) -- CPU_ReadMem(64 bytes @ 0x20000200) -- Updating C cache (64 bytes @ 0x20000200) -- Read from C cache (4 bytes @ 0x20000210) -- Data:  1C 85 00 20  returns 0x00 (0001ms, 0570ms total)
T23F8 001:625 JLINK_ReadMem (0x20000214, 0x0004 Bytes, ...) -- Read from C cache (4 bytes @ 0x20000214) -- Data:  00 00 00 00  returns 0x00 (0000ms, 0571ms total)
T23F8 001:629 JLINK_ReadMem (0x20000218, 0x0004 Bytes, ...) -- Read from C cache (4 bytes @ 0x20000218) -- Data:  00 00 01 00  returns 0x00 (0000ms, 0571ms total)
T23F8 001:632 JLINK_ReadMem (0x2000021C, 0x0004 Bytes, ...) -- Read from C cache (4 bytes @ 0x2000021C) -- Data:  00 00 00 00  returns 0x00 (0000ms, 0571ms total)
T2410 001:664 JLINK_SetBPEx(Addr = 0x08004B50, Type = 0xFFFFFFF2)  returns 0x00000001 (0000ms, 0571ms total)
T2410 001:664 JLINK_SetBPEx(Addr = 0x08004B9A, Type = 0xFFFFFFF2)  returns 0x00000002 (0000ms, 0571ms total)
T2410 001:664 JLINK_Go() -- CPU_WriteMem(4 bytes @ 0xE0002000) -- CPU_WriteMem(4 bytes @ 0xE0002008) -- CPU_WriteMem(4 bytes @ 0xE000200C) -- CPU_WriteMem(4 bytes @ 0xE0002010) -- CPU_WriteMem(4 bytes @ 0xE0002014) -- CPU_WriteMem(4 bytes @ 0xE0002018) -- CPU_WriteMem(4 bytes @ 0xE000201C) (0005ms, 0571ms total)
T2410 001:771 JLINK_IsHalted()  returns TRUE (0003ms, 0576ms total)
T2410 001:774 JLINK_Halt()  returns 0x00 (0000ms, 0576ms total)
T2410 001:774 JLINK_IsHalted()  returns TRUE (0000ms, 0576ms total)
T2410 001:774 JLINK_IsHalted()  returns TRUE (0000ms, 0576ms total)
T2410 001:774 JLINK_IsHalted()  returns TRUE (0000ms, 0576ms total)
T2410 001:774 JLINK_ReadReg(R15)  returns 0x08004B50 (0000ms, 0576ms total)
T2410 001:774 JLINK_ReadReg(XPSR)  returns 0x01000000 (0000ms, 0576ms total)
T2410 001:774 JLINK_ClrBPEx(BPHandle = 0x00000001)  returns 0x00 (0000ms, 0576ms total)
T2410 001:774 JLINK_ClrBPEx(BPHandle = 0x00000002)  returns 0x00 (0000ms, 0576ms total)
T2410 001:774 JLINK_ReadMemU32(0xE000ED30, 0x0001 Items, ...) -- CPU_ReadMem(4 bytes @ 0xE000ED30) -- Data:  03 00 00 00  returns 0x01 (0001ms, 0576ms total)
T2410 001:775 JLINK_ReadMemU32(0xE0001028, 0x0001 Items, ...) -- CPU_ReadMem(4 bytes @ 0xE0001028) -- Data:  01 00 00 40  returns 0x01 (0001ms, 0577ms total)
T2410 001:776 JLINK_ReadMemU32(0xE0001038, 0x0001 Items, ...) -- CPU_ReadMem(4 bytes @ 0xE0001038) -- Data:  01 00 00 40  returns 0x01 (0000ms, 0578ms total)
T2410 001:776 JLINK_ReadMemU32(0xE0001048, 0x0001 Items, ...) -- CPU_ReadMem(4 bytes @ 0xE0001048) -- Data:  01 00 00 40  returns 0x01 (0001ms, 0578ms total)
T2410 001:777 JLINK_ReadMemU32(0xE0001058, 0x0001 Items, ...) -- CPU_ReadMem(4 bytes @ 0xE0001058) -- Data:  01 00 00 40  returns 0x01 (0001ms, 0579ms total)
T2410 001:778 JLINK_ReadReg(R0)  returns 0x200092C8 (0000ms, 0580ms total)
T2410 001:778 JLINK_ReadReg(R1)  returns 0x200094C8 (0000ms, 0580ms total)
T2410 001:778 JLINK_ReadReg(R2)  returns 0x200094C8 (0000ms, 0580ms total)
T2410 001:778 JLINK_ReadReg(R3)  returns 0x200094C8 (0000ms, 0580ms total)
T2410 001:778 JLINK_ReadReg(R4)  returns 0x00000000 (0000ms, 0580ms total)
T2410 001:778 JLINK_ReadReg(R5)  returns 0x20009264 (0000ms, 0580ms total)
T2410 001:778 JLINK_ReadReg(R6)  returns 0x00000000 (0000ms, 0580ms total)
T2410 001:778 JLINK_ReadReg(R7)  returns 0x00000000 (0000ms, 0580ms total)
T2410 001:778 JLINK_ReadReg(R8)  returns 0x00000000 (0000ms, 0580ms total)
T2410 001:778 JLINK_ReadReg(R9)  returns 0xA5A5A5A5 (0000ms, 0580ms total)
T2410 001:778 JLINK_ReadReg(R10)  returns 0x08005F68 (0000ms, 0580ms total)
T2410 001:778 JLINK_ReadReg(R11)  returns 0x00000000 (0000ms, 0580ms total)
T2410 001:778 JLINK_ReadReg(R12)  returns 0x200092A4 (0000ms, 0580ms total)
T2410 001:778 JLINK_ReadReg(R13)  returns 0x2000AAC8 (0000ms, 0580ms total)
T2410 001:778 JLINK_ReadReg(R14)  returns 0x08000225 (0000ms, 0580ms total)
T2410 001:778 JLINK_ReadReg(R15)  returns 0x08004B50 (0000ms, 0580ms total)
T2410 001:778 JLINK_ReadReg(XPSR)  returns 0x01000000 (0000ms, 0580ms total)
T2410 001:778 JLINK_ReadReg(MSP)  returns 0x2000AAC8 (0000ms, 0580ms total)
T2410 001:778 JLINK_ReadReg(PSP)  returns 0x20005628 (0000ms, 0580ms total)
T2410 001:778 JLINK_ReadReg(CFBP)  returns 0x00000000 (0000ms, 0580ms total)
T23F8 001:778 JLINK_ReadMem (0x20000210, 0x0004 Bytes, ...) -- CPU_ReadMem(64 bytes @ 0x20000200) -- Updating C cache (64 bytes @ 0x20000200) -- Read from C cache (4 bytes @ 0x20000210) -- Data:  00 00 00 00  returns 0x00 (0001ms, 0580ms total)
T23F8 001:782 JLINK_ReadMem (0x20000214, 0x0004 Bytes, ...) -- Read from C cache (4 bytes @ 0x20000214) -- Data:  00 00 00 00  returns 0x00 (0000ms, 0581ms total)
T23F8 001:782 JLINK_ReadMem (0x20000218, 0x0004 Bytes, ...) -- Read from C cache (4 bytes @ 0x20000218) -- Data:  00 00 00 00  returns 0x00 (0000ms, 0581ms total)
T23F8 001:782 JLINK_ReadMem (0x2000021C, 0x0004 Bytes, ...) -- Read from C cache (4 bytes @ 0x2000021C) -- Data:  00 00 00 00  returns 0x00 (0000ms, 0581ms total)
T23F8 001:782 JLINK_ReadMem (0x08004B50, 0x003C Bytes, ...) -- CPU_ReadMem(128 bytes @ 0x08004B40) -- Updating C cache (128 bytes @ 0x08004B40) -- Read from C cache (60 bytes @ 0x08004B50) -- Data:  24 48 FD F7 41 FA 01 20 80 F3 10 88 00 BF FC F7 ...  returns 0x00 (0002ms, 0581ms total)
T2410 006:631 JLINK_Step() -- Read from C cache (2 bytes @ 0x08004B50) -- Not simulated -- CPU_WriteMem(4 bytes @ 0xE0002008) -- CPU_WriteMem(4 bytes @ 0xE000200C) -- CPU_WriteMem(4 bytes @ 0xE0002010) -- CPU_WriteMem(4 bytes @ 0xE0002014) -- CPU_WriteMem(4 bytes @ 0xE0002018) -- CPU_WriteMem(4 bytes @ 0xE000201C)  returns 0x00 (0009ms, 0583ms total)
T2410 006:640 JLINK_ReadReg(R15)  returns 0x08004B52 (0000ms, 0592ms total)
T2410 006:640 JLINK_ReadReg(XPSR)  returns 0x01000000 (0000ms, 0592ms total)
T2410 006:640 JLINK_SetBPEx(Addr = 0x08004B56, Type = 0xFFFFFFF2)  returns 0x00000003 (0000ms, 0592ms total)
T2410 006:640 JLINK_SetBPEx(Addr = 0x08004B9A, Type = 0xFFFFFFF2)  returns 0x00000004 (0000ms, 0592ms total)
T2410 006:640 JLINK_Go() -- CPU_WriteMem(4 bytes @ 0xE0002008) -- CPU_WriteMem(4 bytes @ 0xE000200C) -- CPU_WriteMem(4 bytes @ 0xE0002010) -- CPU_WriteMem(4 bytes @ 0xE0002014) -- CPU_WriteMem(4 bytes @ 0xE0002018) -- CPU_WriteMem(4 bytes @ 0xE000201C) (0004ms, 0592ms total)
T2410 006:745 JLINK_IsHalted()  returns TRUE (0004ms, 0596ms total)
T2410 006:749 JLINK_Halt()  returns 0x00 (0000ms, 0596ms total)
T2410 006:749 JLINK_IsHalted()  returns TRUE (0000ms, 0596ms total)
T2410 006:749 JLINK_IsHalted()  returns TRUE (0000ms, 0596ms total)
T2410 006:749 JLINK_IsHalted()  returns TRUE (0000ms, 0596ms total)
T2410 006:749 JLINK_ReadReg(R15)  returns 0x08004B56 (0000ms, 0596ms total)
T2410 006:749 JLINK_ReadReg(XPSR)  returns 0x41000000 (0000ms, 0596ms total)
T2410 006:749 JLINK_ClrBPEx(BPHandle = 0x00000003)  returns 0x00 (0000ms, 0596ms total)
T2410 006:749 JLINK_ClrBPEx(BPHandle = 0x00000004)  returns 0x00 (0000ms, 0596ms total)
T2410 006:749 JLINK_ReadMemU32(0xE000ED30, 0x0001 Items, ...) -- CPU_ReadMem(4 bytes @ 0xE000ED30) -- Data:  03 00 00 00  returns 0x01 (0000ms, 0596ms total)
T2410 006:749 JLINK_ReadMemU32(0xE0001028, 0x0001 Items, ...) -- CPU_ReadMem(4 bytes @ 0xE0001028) -- Data:  01 00 00 40  returns 0x01 (0001ms, 0596ms total)
T2410 006:750 JLINK_ReadMemU32(0xE0001038, 0x0001 Items, ...) -- CPU_ReadMem(4 bytes @ 0xE0001038) -- Data:  01 00 00 40  returns 0x01 (0000ms, 0597ms total)
T2410 006:750 JLINK_ReadMemU32(0xE0001048, 0x0001 Items, ...) -- CPU_ReadMem(4 bytes @ 0xE0001048) -- Data:  01 00 00 40  returns 0x01 (0001ms, 0597ms total)
T2410 006:751 JLINK_ReadMemU32(0xE0001058, 0x0001 Items, ...) -- CPU_ReadMem(4 bytes @ 0xE0001058) -- Data:  01 00 00 40  returns 0x01 (0000ms, 0598ms total)
T2410 006:751 JLINK_ReadReg(R0)  returns 0x20000CC0 (0000ms, 0598ms total)
T2410 006:751 JLINK_ReadReg(R1)  returns 0x00000000 (0000ms, 0598ms total)
T2410 006:751 JLINK_ReadReg(R2)  returns 0x00000009 (0000ms, 0598ms total)
T2410 006:751 JLINK_ReadReg(R3)  returns 0x00000002 (0000ms, 0598ms total)
T2410 006:751 JLINK_ReadReg(R4)  returns 0x00000000 (0000ms, 0598ms total)
T2410 006:751 JLINK_ReadReg(R5)  returns 0x20009264 (0000ms, 0598ms total)
T2410 006:751 JLINK_ReadReg(R6)  returns 0x00000000 (0000ms, 0598ms total)
T2410 006:751 JLINK_ReadReg(R7)  returns 0x00000000 (0000ms, 0598ms total)
T2410 006:751 JLINK_ReadReg(R8)  returns 0x00000000 (0000ms, 0598ms total)
T2410 006:751 JLINK_ReadReg(R9)  returns 0xA5A5A5A5 (0000ms, 0598ms total)
T2410 006:751 JLINK_ReadReg(R10)  returns 0x08005F68 (0000ms, 0598ms total)
T2410 006:751 JLINK_ReadReg(R11)  returns 0x00000000 (0000ms, 0598ms total)
T2410 006:751 JLINK_ReadReg(R12)  returns 0x200092A4 (0000ms, 0598ms total)
T2410 006:751 JLINK_ReadReg(R13)  returns 0x2000AAC8 (0000ms, 0598ms total)
T2410 006:751 JLINK_ReadReg(R14)  returns 0x08004B57 (0000ms, 0598ms total)
T2410 006:751 JLINK_ReadReg(R15)  returns 0x08004B56 (0000ms, 0598ms total)
T2410 006:751 JLINK_ReadReg(XPSR)  returns 0x41000000 (0000ms, 0598ms total)
T2410 006:751 JLINK_ReadReg(MSP)  returns 0x2000AAC8 (0000ms, 0598ms total)
T2410 006:751 JLINK_ReadReg(PSP)  returns 0x20005628 (0000ms, 0598ms total)
T2410 006:751 JLINK_ReadReg(CFBP)  returns 0x00000000 (0000ms, 0598ms total)
T23F8 006:751 JLINK_ReadMem (0x20000210, 0x0004 Bytes, ...) -- CPU_ReadMem(64 bytes @ 0x20000200) -- Updating C cache (64 bytes @ 0x20000200) -- Read from C cache (4 bytes @ 0x20000210) -- Data:  00 00 00 00  returns 0x00 (0002ms, 0598ms total)
T23F8 006:753 JLINK_ReadMem (0x20000214, 0x0004 Bytes, ...) -- Read from C cache (4 bytes @ 0x20000214) -- Data:  00 00 00 00  returns 0x00 (0000ms, 0600ms total)
T23F8 006:753 JLINK_ReadMem (0x20000218, 0x0004 Bytes, ...) -- Read from C cache (4 bytes @ 0x20000218) -- Data:  00 00 00 00  returns 0x00 (0000ms, 0600ms total)
T23F8 006:753 JLINK_ReadMem (0x2000021C, 0x0004 Bytes, ...) -- Read from C cache (4 bytes @ 0x2000021C) -- Data:  00 00 00 00  returns 0x00 (0000ms, 0600ms total)
T23F8 006:753 JLINK_ReadMem (0x08004B56, 0x0002 Bytes, ...) -- CPU_ReadMem(64 bytes @ 0x08004B40) -- Updating C cache (64 bytes @ 0x08004B40) -- Read from C cache (2 bytes @ 0x08004B56) -- Data:  01 20  returns 0x00 (0002ms, 0600ms total)
T23F8 006:755 JLINK_ReadMem (0x08004B58, 0x003C Bytes, ...) -- CPU_ReadMem(64 bytes @ 0x08004B80) -- Updating C cache (64 bytes @ 0x08004B80) -- Read from C cache (60 bytes @ 0x08004B58) -- Data:  80 F3 10 88 00 BF FC F7 6C FE 48 20 FF F7 90 FE ...  returns 0x00 (0002ms, 0602ms total)
T2410 007:335 JLINK_Step() -- Read from C cache (2 bytes @ 0x08004B56) -- Simulated  returns 0x00 (0000ms, 0604ms total)
T2410 007:335 JLINK_ReadReg(R15)  returns 0x08004B58 (0000ms, 0604ms total)
T2410 007:335 JLINK_ReadReg(XPSR)  returns 0x01000000 (0000ms, 0604ms total)
T2410 007:335 JLINK_SetBPEx(Addr = 0x08004B5E, Type = 0xFFFFFFF2)  returns 0x00000005 (0000ms, 0604ms total)
T2410 007:335 JLINK_SetBPEx(Addr = 0x08004B9A, Type = 0xFFFFFFF2)  returns 0x00000006 (0000ms, 0604ms total)
T2410 007:335 JLINK_Go() -- CPU_WriteMem(4 bytes @ 0xE0002008) -- CPU_WriteMem(4 bytes @ 0xE000200C) -- CPU_WriteMem(4 bytes @ 0xE0002010) -- CPU_WriteMem(4 bytes @ 0xE0002014) -- CPU_WriteMem(4 bytes @ 0xE0002018) -- CPU_WriteMem(4 bytes @ 0xE000201C) (0006ms, 0604ms total)
T2410 007:442 JLINK_IsHalted()  returns TRUE (0003ms, 0610ms total)
T2410 007:445 JLINK_Halt()  returns 0x00 (0000ms, 0610ms total)
T2410 007:445 JLINK_IsHalted()  returns TRUE (0000ms, 0610ms total)
T2410 007:445 JLINK_IsHalted()  returns TRUE (0000ms, 0610ms total)
T2410 007:445 JLINK_IsHalted()  returns TRUE (0000ms, 0610ms total)
T2410 007:445 JLINK_ReadReg(R15)  returns 0x08004B5E (0000ms, 0610ms total)
T2410 007:445 JLINK_ReadReg(XPSR)  returns 0x01000000 (0000ms, 0610ms total)
T2410 007:445 JLINK_ClrBPEx(BPHandle = 0x00000005)  returns 0x00 (0000ms, 0610ms total)
T2410 007:445 JLINK_ClrBPEx(BPHandle = 0x00000006)  returns 0x00 (0000ms, 0610ms total)
T2410 007:445 JLINK_ReadMemU32(0xE000ED30, 0x0001 Items, ...) -- CPU_ReadMem(4 bytes @ 0xE000ED30) -- Data:  03 00 00 00  returns 0x01 (0002ms, 0610ms total)
T2410 007:447 JLINK_ReadMemU32(0xE0001028, 0x0001 Items, ...) -- CPU_ReadMem(4 bytes @ 0xE0001028) -- Data:  01 00 00 40  returns 0x01 (0000ms, 0612ms total)
T2410 007:448 JLINK_ReadMemU32(0xE0001038, 0x0001 Items, ...) -- CPU_ReadMem(4 bytes @ 0xE0001038) -- Data:  01 00 00 40  returns 0x01 (0000ms, 0612ms total)
T2410 007:448 JLINK_ReadMemU32(0xE0001048, 0x0001 Items, ...) -- CPU_ReadMem(4 bytes @ 0xE0001048) -- Data:  01 00 00 40  returns 0x01 (0001ms, 0612ms total)
T2410 007:449 JLINK_ReadMemU32(0xE0001058, 0x0001 Items, ...) -- CPU_ReadMem(4 bytes @ 0xE0001058) -- Data:  01 00 00 40  returns 0x01 (0001ms, 0613ms total)
T2410 007:450 JLINK_ReadReg(R0)  returns 0x00000001 (0000ms, 0614ms total)
T2410 007:450 JLINK_ReadReg(R1)  returns 0x00000000 (0000ms, 0614ms total)
T2410 007:450 JLINK_ReadReg(R2)  returns 0x00000009 (0000ms, 0614ms total)
T2410 007:450 JLINK_ReadReg(R3)  returns 0x00000002 (0000ms, 0614ms total)
T2410 007:450 JLINK_ReadReg(R4)  returns 0x00000000 (0000ms, 0614ms total)
T2410 007:450 JLINK_ReadReg(R5)  returns 0x20009264 (0000ms, 0614ms total)
T2410 007:450 JLINK_ReadReg(R6)  returns 0x00000000 (0000ms, 0614ms total)
T2410 007:450 JLINK_ReadReg(R7)  returns 0x00000000 (0000ms, 0614ms total)
T2410 007:450 JLINK_ReadReg(R8)  returns 0x00000000 (0000ms, 0614ms total)
T2410 007:450 JLINK_ReadReg(R9)  returns 0xA5A5A5A5 (0000ms, 0614ms total)
T2410 007:450 JLINK_ReadReg(R10)  returns 0x08005F68 (0000ms, 0614ms total)
T2410 007:450 JLINK_ReadReg(R11)  returns 0x00000000 (0000ms, 0614ms total)
T2410 007:450 JLINK_ReadReg(R12)  returns 0x200092A4 (0000ms, 0614ms total)
T2410 007:450 JLINK_ReadReg(R13)  returns 0x2000AAC8 (0000ms, 0614ms total)
T2410 007:450 JLINK_ReadReg(R14)  returns 0x08004B57 (0000ms, 0614ms total)
T2410 007:450 JLINK_ReadReg(R15)  returns 0x08004B5E (0000ms, 0614ms total)
T2410 007:450 JLINK_ReadReg(XPSR)  returns 0x01000000 (0000ms, 0614ms total)
T2410 007:450 JLINK_ReadReg(MSP)  returns 0x2000AAC8 (0000ms, 0614ms total)
T2410 007:450 JLINK_ReadReg(PSP)  returns 0x20005628 (0000ms, 0614ms total)
T2410 007:450 JLINK_ReadReg(CFBP)  returns 0x00000001 (0000ms, 0614ms total)
T23F8 007:450 JLINK_ReadMem (0x20000210, 0x0004 Bytes, ...) -- CPU_ReadMem(64 bytes @ 0x20000200) -- Updating C cache (64 bytes @ 0x20000200) -- Read from C cache (4 bytes @ 0x20000210) -- Data:  00 00 00 00  returns 0x00 (0001ms, 0614ms total)
T23F8 007:451 JLINK_ReadMem (0x20000214, 0x0004 Bytes, ...) -- Read from C cache (4 bytes @ 0x20000214) -- Data:  00 00 00 00  returns 0x00 (0000ms, 0615ms total)
T23F8 007:451 JLINK_ReadMem (0x20000218, 0x0004 Bytes, ...) -- Read from C cache (4 bytes @ 0x20000218) -- Data:  00 00 00 00  returns 0x00 (0000ms, 0615ms total)
T23F8 007:451 JLINK_ReadMem (0x2000021C, 0x0004 Bytes, ...) -- Read from C cache (4 bytes @ 0x2000021C) -- Data:  00 00 00 00  returns 0x00 (0000ms, 0615ms total)
T23F8 007:451 JLINK_ReadMem (0x08004B5E, 0x0002 Bytes, ...) -- CPU_ReadMem(64 bytes @ 0x08004B40) -- Updating C cache (64 bytes @ 0x08004B40) -- Read from C cache (2 bytes @ 0x08004B5E) -- Data:  FC F7  returns 0x00 (0001ms, 0615ms total)
T23F8 007:452 JLINK_ReadMem (0x08004B60, 0x003C Bytes, ...) -- CPU_ReadMem(64 bytes @ 0x08004B80) -- Updating C cache (64 bytes @ 0x08004B80) -- Read from C cache (60 bytes @ 0x08004B60) -- Data:  6C FE 48 20 FF F7 90 FE FD F7 FA FB FB F7 AA FF ...  returns 0x00 (0002ms, 0616ms total)
T2410 007:662 JLINK_SetBPEx(Addr = 0x08004B62, Type = 0xFFFFFFF2)  returns 0x00000007 (0001ms, 0618ms total)
T2410 007:663 JLINK_SetBPEx(Addr = 0x08004B9A, Type = 0xFFFFFFF2)  returns 0x00000008 (0000ms, 0619ms total)
T2410 007:663 JLINK_Go() -- CPU_WriteMem(4 bytes @ 0xE0002008) -- CPU_WriteMem(4 bytes @ 0xE000200C) -- CPU_WriteMem(4 bytes @ 0xE0002010) -- CPU_WriteMem(4 bytes @ 0xE0002014) -- CPU_WriteMem(4 bytes @ 0xE0002018) -- CPU_WriteMem(4 bytes @ 0xE000201C) (0004ms, 0619ms total)
T2410 007:769 JLINK_IsHalted()  returns TRUE (0003ms, 0623ms total)
T2410 007:772 JLINK_Halt()  returns 0x00 (0000ms, 0623ms total)
T2410 007:772 JLINK_IsHalted()  returns TRUE (0000ms, 0623ms total)
T2410 007:772 JLINK_IsHalted()  returns TRUE (0000ms, 0623ms total)
T2410 007:772 JLINK_IsHalted()  returns TRUE (0000ms, 0623ms total)
T2410 007:772 JLINK_ReadReg(R15)  returns 0x08004B62 (0000ms, 0623ms total)
T2410 007:772 JLINK_ReadReg(XPSR)  returns 0x61000000 (0000ms, 0623ms total)
T2410 007:773 JLINK_ClrBPEx(BPHandle = 0x00000007)  returns 0x00 (0000ms, 0623ms total)
T2410 007:773 JLINK_ClrBPEx(BPHandle = 0x00000008)  returns 0x00 (0000ms, 0623ms total)
T2410 007:773 JLINK_ReadMemU32(0xE000ED30, 0x0001 Items, ...) -- CPU_ReadMem(4 bytes @ 0xE000ED30) -- Data:  03 00 00 00  returns 0x01 (0000ms, 0623ms total)
T2410 007:773 JLINK_ReadMemU32(0xE0001028, 0x0001 Items, ...) -- CPU_ReadMem(4 bytes @ 0xE0001028) -- Data:  01 00 00 40  returns 0x01 (0001ms, 0623ms total)
T2410 007:774 JLINK_ReadMemU32(0xE0001038, 0x0001 Items, ...) -- CPU_ReadMem(4 bytes @ 0xE0001038) -- Data:  01 00 00 40  returns 0x01 (0000ms, 0624ms total)
T2410 007:774 JLINK_ReadMemU32(0xE0001048, 0x0001 Items, ...) -- CPU_ReadMem(4 bytes @ 0xE0001048) -- Data:  01 00 00 40  returns 0x01 (0001ms, 0624ms total)
T2410 007:775 JLINK_ReadMemU32(0xE0001058, 0x0001 Items, ...) -- CPU_ReadMem(4 bytes @ 0xE0001058) -- Data:  01 00 00 40  returns 0x01 (0000ms, 0625ms total)
T2410 007:776 JLINK_ReadReg(R0)  returns 0x2000AAC0 (0000ms, 0625ms total)
T2410 007:776 JLINK_ReadReg(R1)  returns 0x00000040 (0000ms, 0625ms total)
T2410 007:776 JLINK_ReadReg(R2)  returns 0x00000000 (0000ms, 0625ms total)
T2410 007:776 JLINK_ReadReg(R3)  returns 0x0100041C (0000ms, 0625ms total)
T2410 007:776 JLINK_ReadReg(R4)  returns 0x00000000 (0000ms, 0625ms total)
T2410 007:776 JLINK_ReadReg(R5)  returns 0x20009264 (0000ms, 0625ms total)
T2410 007:776 JLINK_ReadReg(R6)  returns 0x00000000 (0000ms, 0625ms total)
T2410 007:776 JLINK_ReadReg(R7)  returns 0x00000000 (0000ms, 0625ms total)
T2410 007:776 JLINK_ReadReg(R8)  returns 0x00000000 (0000ms, 0625ms total)
T2410 007:776 JLINK_ReadReg(R9)  returns 0xA5A5A5A5 (0000ms, 0625ms total)
T2410 007:776 JLINK_ReadReg(R10)  returns 0x08005F68 (0000ms, 0625ms total)
T2410 007:776 JLINK_ReadReg(R11)  returns 0x00000000 (0000ms, 0625ms total)
T2410 007:776 JLINK_ReadReg(R12)  returns 0x200092A4 (0000ms, 0625ms total)
T2410 007:776 JLINK_ReadReg(R13)  returns 0x2000AAC8 (0000ms, 0625ms total)
T2410 007:776 JLINK_ReadReg(R14)  returns 0x080018BB (0000ms, 0625ms total)
T2410 007:776 JLINK_ReadReg(R15)  returns 0x08004B62 (0000ms, 0625ms total)
T2410 007:776 JLINK_ReadReg(XPSR)  returns 0x61000000 (0000ms, 0625ms total)
T2410 007:776 JLINK_ReadReg(MSP)  returns 0x2000AAC8 (0000ms, 0625ms total)
T2410 007:776 JLINK_ReadReg(PSP)  returns 0x20005628 (0000ms, 0625ms total)
T2410 007:776 JLINK_ReadReg(CFBP)  returns 0x00000001 (0000ms, 0625ms total)
T23F8 007:776 JLINK_ReadMem (0x20000210, 0x0004 Bytes, ...) -- CPU_ReadMem(64 bytes @ 0x20000200) -- Updating C cache (64 bytes @ 0x20000200) -- Read from C cache (4 bytes @ 0x20000210) -- Data:  00 00 00 00  returns 0x00 (0001ms, 0625ms total)
T23F8 007:777 JLINK_ReadMem (0x20000214, 0x0004 Bytes, ...) -- Read from C cache (4 bytes @ 0x20000214) -- Data:  00 00 00 00  returns 0x00 (0000ms, 0626ms total)
T23F8 007:777 JLINK_ReadMem (0x20000218, 0x0004 Bytes, ...) -- Read from C cache (4 bytes @ 0x20000218) -- Data:  00 00 00 00  returns 0x00 (0000ms, 0626ms total)
T23F8 007:777 JLINK_ReadMem (0x2000021C, 0x0004 Bytes, ...) -- Read from C cache (4 bytes @ 0x2000021C) -- Data:  00 00 00 00  returns 0x00 (0000ms, 0626ms total)
T2410 008:023 JLINK_ReadMem (0x08004B62, 0x0002 Bytes, ...) -- CPU_ReadMem(64 bytes @ 0x08004B40) -- Updating C cache (64 bytes @ 0x08004B40) -- Read from C cache (2 bytes @ 0x08004B62) -- Data:  48 20  returns 0x00 (0002ms, 0626ms total)
T2410 008:025 JLINK_ReadMem (0x08004B64, 0x003C Bytes, ...) -- CPU_ReadMem(64 bytes @ 0x08004B80) -- Updating C cache (64 bytes @ 0x08004B80) -- Read from C cache (60 bytes @ 0x08004B64) -- Data:  FF F7 90 FE FD F7 FA FB FB F7 AA FF FC F7 26 FE ...  returns 0x00 (0001ms, 0628ms total)
T2410 008:026 JLINK_Step() -- Read from C cache (2 bytes @ 0x08004B62) -- Simulated  returns 0x00 (0000ms, 0629ms total)
T2410 008:026 JLINK_ReadReg(R15)  returns 0x08004B64 (0000ms, 0629ms total)
T2410 008:026 JLINK_ReadReg(XPSR)  returns 0x21000000 (0000ms, 0629ms total)
T2410 008:026 JLINK_SetBPEx(Addr = 0x08004B68, Type = 0xFFFFFFF2)  returns 0x00000009 (0000ms, 0629ms total)
T2410 008:026 JLINK_SetBPEx(Addr = 0x08004B9A, Type = 0xFFFFFFF2)  returns 0x0000000A (0000ms, 0629ms total)
T2410 008:026 JLINK_Go() -- CPU_WriteMem(4 bytes @ 0xE0002008) -- CPU_WriteMem(4 bytes @ 0xE000200C) -- CPU_WriteMem(4 bytes @ 0xE0002010) -- CPU_WriteMem(4 bytes @ 0xE0002014) -- CPU_WriteMem(4 bytes @ 0xE0002018) -- CPU_WriteMem(4 bytes @ 0xE000201C) (0005ms, 0629ms total)
T2410 008:132 JLINK_IsHalted()  returns TRUE (0003ms, 0634ms total)
T2410 008:135 JLINK_Halt()  returns 0x00 (0000ms, 0634ms total)
T2410 008:135 JLINK_IsHalted()  returns TRUE (0000ms, 0634ms total)
T2410 008:135 JLINK_IsHalted()  returns TRUE (0000ms, 0634ms total)
T2410 008:135 JLINK_IsHalted()  returns TRUE (0000ms, 0634ms total)
T2410 008:135 JLINK_ReadReg(R15)  returns 0x08004B68 (0000ms, 0634ms total)
T2410 008:135 JLINK_ReadReg(XPSR)  returns 0x61000000 (0000ms, 0634ms total)
T2410 008:135 JLINK_ClrBPEx(BPHandle = 0x00000009)  returns 0x00 (0000ms, 0634ms total)
T2410 008:135 JLINK_ClrBPEx(BPHandle = 0x0000000A)  returns 0x00 (0000ms, 0634ms total)
T2410 008:135 JLINK_ReadMemU32(0xE000ED30, 0x0001 Items, ...) -- CPU_ReadMem(4 bytes @ 0xE000ED30) -- Data:  03 00 00 00  returns 0x01 (0001ms, 0634ms total)
T2410 008:136 JLINK_ReadMemU32(0xE0001028, 0x0001 Items, ...) -- CPU_ReadMem(4 bytes @ 0xE0001028) -- Data:  01 00 00 40  returns 0x01 (0001ms, 0635ms total)
T2410 008:137 JLINK_ReadMemU32(0xE0001038, 0x0001 Items, ...) -- CPU_ReadMem(4 bytes @ 0xE0001038) -- Data:  01 00 00 40  returns 0x01 (0000ms, 0636ms total)
T2410 008:137 JLINK_ReadMemU32(0xE0001048, 0x0001 Items, ...) -- CPU_ReadMem(4 bytes @ 0xE0001048) -- Data:  01 00 00 40  returns 0x01 (0001ms, 0636ms total)
T2410 008:138 JLINK_ReadMemU32(0xE0001058, 0x0001 Items, ...) -- CPU_ReadMem(4 bytes @ 0xE0001058) -- Data:  01 00 00 40  returns 0x01 (0001ms, 0637ms total)
T2410 008:139 JLINK_ReadReg(R0)  returns 0x00000007 (0000ms, 0638ms total)
T2410 008:139 JLINK_ReadReg(R1)  returns 0xE000E000 (0000ms, 0638ms total)
T2410 008:139 JLINK_ReadReg(R2)  returns 0xE000E000 (0000ms, 0638ms total)
T2410 008:139 JLINK_ReadReg(R3)  returns 0x0100041C (0000ms, 0638ms total)
T2410 008:139 JLINK_ReadReg(R4)  returns 0x00000000 (0000ms, 0638ms total)
T2410 008:139 JLINK_ReadReg(R5)  returns 0x20009264 (0000ms, 0638ms total)
T2410 008:139 JLINK_ReadReg(R6)  returns 0x00000000 (0000ms, 0638ms total)
T2410 008:139 JLINK_ReadReg(R7)  returns 0x00000000 (0000ms, 0638ms total)
T2410 008:139 JLINK_ReadReg(R8)  returns 0x00000000 (0000ms, 0638ms total)
T2410 008:139 JLINK_ReadReg(R9)  returns 0xA5A5A5A5 (0000ms, 0638ms total)
T2410 008:139 JLINK_ReadReg(R10)  returns 0x08005F68 (0000ms, 0638ms total)
T2410 008:139 JLINK_ReadReg(R11)  returns 0x00000000 (0000ms, 0638ms total)
T2410 008:139 JLINK_ReadReg(R12)  returns 0x200092A4 (0000ms, 0638ms total)
T2410 008:139 JLINK_ReadReg(R13)  returns 0x2000AAC8 (0000ms, 0638ms total)
T2410 008:139 JLINK_ReadReg(R14)  returns 0x08004893 (0000ms, 0638ms total)
T2410 008:139 JLINK_ReadReg(R15)  returns 0x08004B68 (0000ms, 0638ms total)
T2410 008:139 JLINK_ReadReg(XPSR)  returns 0x61000000 (0000ms, 0638ms total)
T2410 008:139 JLINK_ReadReg(MSP)  returns 0x2000AAC8 (0000ms, 0638ms total)
T2410 008:139 JLINK_ReadReg(PSP)  returns 0x20005628 (0000ms, 0638ms total)
T2410 008:139 JLINK_ReadReg(CFBP)  returns 0x00000001 (0000ms, 0638ms total)
T23F8 008:139 JLINK_ReadMem (0x20000210, 0x0004 Bytes, ...) -- CPU_ReadMem(64 bytes @ 0x20000200) -- Updating C cache (64 bytes @ 0x20000200) -- Read from C cache (4 bytes @ 0x20000210) -- Data:  00 00 00 00  returns 0x00 (0001ms, 0638ms total)
T23F8 008:140 JLINK_ReadMem (0x20000214, 0x0004 Bytes, ...) -- Read from C cache (4 bytes @ 0x20000214) -- Data:  00 00 00 00  returns 0x00 (0000ms, 0639ms total)
T23F8 008:140 JLINK_ReadMem (0x20000218, 0x0004 Bytes, ...) -- Read from C cache (4 bytes @ 0x20000218) -- Data:  00 00 00 00  returns 0x00 (0000ms, 0639ms total)
T23F8 008:140 JLINK_ReadMem (0x2000021C, 0x0004 Bytes, ...) -- Read from C cache (4 bytes @ 0x2000021C) -- Data:  00 00 00 00  returns 0x00 (0000ms, 0639ms total)
T23F8 008:140 JLINK_ReadMem (0x08004B68, 0x003C Bytes, ...) -- CPU_ReadMem(128 bytes @ 0x08004B40) -- Updating C cache (128 bytes @ 0x08004B40) -- Read from C cache (60 bytes @ 0x08004B68) -- Data:  FD F7 FA FB FB F7 AA FF FC F7 26 FE 41 F6 1F 41 ...  returns 0x00 (0002ms, 0639ms total)
T2410 008:351 JLINK_SetBPEx(Addr = 0x08004B6C, Type = 0xFFFFFFF2)  returns 0x0000000B (0000ms, 0641ms total)
T2410 008:351 JLINK_SetBPEx(Addr = 0x08004B9A, Type = 0xFFFFFFF2)  returns 0x0000000C (0000ms, 0641ms total)
T2410 008:351 JLINK_Go() -- CPU_WriteMem(4 bytes @ 0xE0002008) -- CPU_WriteMem(4 bytes @ 0xE000200C) -- CPU_WriteMem(4 bytes @ 0xE0002010) -- CPU_WriteMem(4 bytes @ 0xE0002014) -- CPU_WriteMem(4 bytes @ 0xE0002018) -- CPU_WriteMem(4 bytes @ 0xE000201C) (0004ms, 0641ms total)
T2410 008:456 JLINK_IsHalted()  returns TRUE (0004ms, 0645ms total)
T2410 008:460 JLINK_Halt()  returns 0x00 (0000ms, 0645ms total)
T2410 008:460 JLINK_IsHalted()  returns TRUE (0000ms, 0645ms total)
T2410 008:460 JLINK_IsHalted()  returns TRUE (0000ms, 0645ms total)
T2410 008:460 JLINK_IsHalted()  returns TRUE (0000ms, 0645ms total)
T2410 008:460 JLINK_ReadReg(R15)  returns 0x08004B6C (0000ms, 0645ms total)
T2410 008:460 JLINK_ReadReg(XPSR)  returns 0x61000000 (0000ms, 0645ms total)
T2410 008:460 JLINK_ClrBPEx(BPHandle = 0x0000000B)  returns 0x00 (0000ms, 0645ms total)
T2410 008:460 JLINK_ClrBPEx(BPHandle = 0x0000000C)  returns 0x00 (0000ms, 0645ms total)
T2410 008:460 JLINK_ReadMemU32(0xE000ED30, 0x0001 Items, ...) -- CPU_ReadMem(4 bytes @ 0xE000ED30) -- Data:  03 00 00 00  returns 0x01 (0000ms, 0645ms total)
T2410 008:460 JLINK_ReadMemU32(0xE0001028, 0x0001 Items, ...) -- CPU_ReadMem(4 bytes @ 0xE0001028) -- Data:  01 00 00 40  returns 0x01 (0001ms, 0645ms total)
T2410 008:461 JLINK_ReadMemU32(0xE0001038, 0x0001 Items, ...) -- CPU_ReadMem(4 bytes @ 0xE0001038) -- Data:  01 00 00 40  returns 0x01 (0000ms, 0646ms total)
T2410 008:461 JLINK_ReadMemU32(0xE0001048, 0x0001 Items, ...) -- CPU_ReadMem(4 bytes @ 0xE0001048) -- Data:  01 00 00 40  returns 0x01 (0001ms, 0646ms total)
T2410 008:462 JLINK_ReadMemU32(0xE0001058, 0x0001 Items, ...) -- CPU_ReadMem(4 bytes @ 0xE0001058) -- Data:  01 00 00 40  returns 0x01 (0001ms, 0647ms total)
T2410 008:463 JLINK_ReadReg(R0)  returns 0x00000000 (0000ms, 0648ms total)
T2410 008:463 JLINK_ReadReg(R1)  returns 0x2000245A (0000ms, 0648ms total)
T2410 008:463 JLINK_ReadReg(R2)  returns 0xE000E000 (0000ms, 0648ms total)
T2410 008:463 JLINK_ReadReg(R3)  returns 0x0100041C (0000ms, 0648ms total)
T2410 008:463 JLINK_ReadReg(R4)  returns 0x00000000 (0000ms, 0648ms total)
T2410 008:463 JLINK_ReadReg(R5)  returns 0x20009264 (0000ms, 0648ms total)
T2410 008:463 JLINK_ReadReg(R6)  returns 0x00000000 (0000ms, 0648ms total)
T2410 008:463 JLINK_ReadReg(R7)  returns 0x00000000 (0000ms, 0648ms total)
T2410 008:463 JLINK_ReadReg(R8)  returns 0x00000000 (0000ms, 0648ms total)
T2410 008:463 JLINK_ReadReg(R9)  returns 0xA5A5A5A5 (0000ms, 0648ms total)
T2410 008:463 JLINK_ReadReg(R10)  returns 0x08005F68 (0000ms, 0648ms total)
T2410 008:463 JLINK_ReadReg(R11)  returns 0x00000000 (0000ms, 0648ms total)
T2410 008:463 JLINK_ReadReg(R12)  returns 0x08005F1C (0000ms, 0648ms total)
T2410 008:463 JLINK_ReadReg(R13)  returns 0x2000AAC8 (0000ms, 0648ms total)
T2410 008:463 JLINK_ReadReg(R14)  returns 0x0800225B (0000ms, 0648ms total)
T2410 008:463 JLINK_ReadReg(R15)  returns 0x08004B6C (0000ms, 0648ms total)
T2410 008:463 JLINK_ReadReg(XPSR)  returns 0x61000000 (0000ms, 0648ms total)
T2410 008:463 JLINK_ReadReg(MSP)  returns 0x2000AAC8 (0000ms, 0648ms total)
T2410 008:463 JLINK_ReadReg(PSP)  returns 0x20005628 (0000ms, 0648ms total)
T2410 008:463 JLINK_ReadReg(CFBP)  returns 0x00000001 (0000ms, 0648ms total)
T23F8 008:463 JLINK_ReadMem (0x20000210, 0x0004 Bytes, ...) -- CPU_ReadMem(64 bytes @ 0x20000200) -- Updating C cache (64 bytes @ 0x20000200) -- Read from C cache (4 bytes @ 0x20000210) -- Data:  00 00 00 00  returns 0x00 (0001ms, 0648ms total)
T23F8 008:464 JLINK_ReadMem (0x20000214, 0x0004 Bytes, ...) -- Read from C cache (4 bytes @ 0x20000214) -- Data:  00 00 00 00  returns 0x00 (0000ms, 0649ms total)
T23F8 008:464 JLINK_ReadMem (0x20000218, 0x0004 Bytes, ...) -- Read from C cache (4 bytes @ 0x20000218) -- Data:  00 00 00 00  returns 0x00 (0000ms, 0649ms total)
T23F8 008:464 JLINK_ReadMem (0x2000021C, 0x0004 Bytes, ...) -- Read from C cache (4 bytes @ 0x2000021C) -- Data:  75 56 6D 38  returns 0x00 (0000ms, 0649ms total)
T2410 008:657 JLINK_ReadMem (0x08004B6C, 0x003C Bytes, ...) -- CPU_ReadMem(128 bytes @ 0x08004B40) -- Updating C cache (128 bytes @ 0x08004B40) -- Read from C cache (60 bytes @ 0x08004B6C) -- Data:  FB F7 AA FF FC F7 26 FE 41 F6 1F 41 63 20 FD F7 ...  returns 0x00 (0003ms, 0649ms total)
T2410 008:660 JLINK_SetBPEx(Addr = 0x08004B70, Type = 0xFFFFFFF2)  returns 0x0000000D (0000ms, 0652ms total)
T2410 008:660 JLINK_SetBPEx(Addr = 0x08004B9A, Type = 0xFFFFFFF2)  returns 0x0000000E (0000ms, 0652ms total)
T2410 008:660 JLINK_Go() -- CPU_WriteMem(4 bytes @ 0xE0002008) -- CPU_WriteMem(4 bytes @ 0xE000200C) -- CPU_WriteMem(4 bytes @ 0xE0002010) -- CPU_WriteMem(4 bytes @ 0xE0002014) -- CPU_WriteMem(4 bytes @ 0xE0002018) -- CPU_WriteMem(4 bytes @ 0xE000201C) (0004ms, 0652ms total)
T2410 008:765 JLINK_IsHalted()  returns TRUE (0003ms, 0656ms total)
T2410 008:768 JLINK_Halt()  returns 0x00 (0001ms, 0656ms total)
T2410 008:769 JLINK_IsHalted()  returns TRUE (0000ms, 0657ms total)
T2410 008:769 JLINK_IsHalted()  returns TRUE (0000ms, 0657ms total)
T2410 008:769 JLINK_IsHalted()  returns TRUE (0000ms, 0657ms total)
T2410 008:769 JLINK_ReadReg(R15)  returns 0x08004B70 (0000ms, 0657ms total)
T2410 008:769 JLINK_ReadReg(XPSR)  returns 0x01000000 (0000ms, 0657ms total)
T2410 008:769 JLINK_ClrBPEx(BPHandle = 0x0000000D)  returns 0x00 (0000ms, 0657ms total)
T2410 008:769 JLINK_ClrBPEx(BPHandle = 0x0000000E)  returns 0x00 (0000ms, 0657ms total)
T2410 008:769 JLINK_ReadMemU32(0xE000ED30, 0x0001 Items, ...) -- CPU_ReadMem(4 bytes @ 0xE000ED30) -- Data:  03 00 00 00  returns 0x01 (0000ms, 0657ms total)
T2410 008:769 JLINK_ReadMemU32(0xE0001028, 0x0001 Items, ...) -- CPU_ReadMem(4 bytes @ 0xE0001028) -- Data:  01 00 00 40  returns 0x01 (0001ms, 0657ms total)
T2410 008:770 JLINK_ReadMemU32(0xE0001038, 0x0001 Items, ...) -- CPU_ReadMem(4 bytes @ 0xE0001038) -- Data:  01 00 00 40  returns 0x01 (0001ms, 0658ms total)
T2410 008:771 JLINK_ReadMemU32(0xE0001048, 0x0001 Items, ...) -- CPU_ReadMem(4 bytes @ 0xE0001048) -- Data:  01 00 00 40  returns 0x01 (0000ms, 0659ms total)
T2410 008:771 JLINK_ReadMemU32(0xE0001058, 0x0001 Items, ...) -- CPU_ReadMem(4 bytes @ 0xE0001058) -- Data:  01 00 00 40  returns 0x01 (0001ms, 0659ms total)
T2410 008:772 JLINK_ReadReg(R0)  returns 0x40010C00 (0000ms, 0660ms total)
T2410 008:772 JLINK_ReadReg(R1)  returns 0x00000040 (0000ms, 0660ms total)
T2410 008:772 JLINK_ReadReg(R2)  returns 0x40010C00 (0000ms, 0660ms total)
T2410 008:772 JLINK_ReadReg(R3)  returns 0x100300C0 (0000ms, 0660ms total)
T2410 008:772 JLINK_ReadReg(R4)  returns 0x00000000 (0000ms, 0660ms total)
T2410 008:772 JLINK_ReadReg(R5)  returns 0x20009264 (0000ms, 0660ms total)
T2410 008:772 JLINK_ReadReg(R6)  returns 0x00000000 (0000ms, 0660ms total)
T2410 008:772 JLINK_ReadReg(R7)  returns 0x00000000 (0000ms, 0660ms total)
T2410 008:772 JLINK_ReadReg(R8)  returns 0x00000000 (0000ms, 0660ms total)
T2410 008:772 JLINK_ReadReg(R9)  returns 0xA5A5A5A5 (0000ms, 0660ms total)
T2410 008:772 JLINK_ReadReg(R10)  returns 0x08005F68 (0000ms, 0660ms total)
T2410 008:772 JLINK_ReadReg(R11)  returns 0x00000000 (0000ms, 0660ms total)
T2410 008:772 JLINK_ReadReg(R12)  returns 0x000000C0 (0000ms, 0660ms total)
T2410 008:772 JLINK_ReadReg(R13)  returns 0x2000AAC8 (0000ms, 0660ms total)
T2410 008:772 JLINK_ReadReg(R14)  returns 0x08001545 (0000ms, 0660ms total)
T2410 008:772 JLINK_ReadReg(R15)  returns 0x08004B70 (0000ms, 0660ms total)
T2410 008:772 JLINK_ReadReg(XPSR)  returns 0x01000000 (0000ms, 0660ms total)
T2410 008:772 JLINK_ReadReg(MSP)  returns 0x2000AAC8 (0000ms, 0660ms total)
T2410 008:772 JLINK_ReadReg(PSP)  returns 0x20005628 (0000ms, 0660ms total)
T2410 008:772 JLINK_ReadReg(CFBP)  returns 0x00000001 (0000ms, 0660ms total)
T23F8 008:772 JLINK_ReadMem (0x20000210, 0x0004 Bytes, ...) -- CPU_ReadMem(64 bytes @ 0x20000200) -- Updating C cache (64 bytes @ 0x20000200) -- Read from C cache (4 bytes @ 0x20000210) -- Data:  00 00 00 00  returns 0x00 (0002ms, 0660ms total)
T23F8 008:774 JLINK_ReadMem (0x20000214, 0x0004 Bytes, ...) -- Read from C cache (4 bytes @ 0x20000214) -- Data:  00 00 00 00  returns 0x00 (0000ms, 0662ms total)
T23F8 008:774 JLINK_ReadMem (0x20000218, 0x0004 Bytes, ...) -- Read from C cache (4 bytes @ 0x20000218) -- Data:  00 00 00 00  returns 0x00 (0000ms, 0662ms total)
T23F8 008:774 JLINK_ReadMem (0x2000021C, 0x0004 Bytes, ...) -- Read from C cache (4 bytes @ 0x2000021C) -- Data:  75 56 6D 38  returns 0x00 (0000ms, 0662ms total)
T23F8 008:774 JLINK_ReadMem (0x08004B70, 0x003C Bytes, ...) -- CPU_ReadMem(128 bytes @ 0x08004B40) -- Updating C cache (128 bytes @ 0x08004B40) -- Read from C cache (60 bytes @ 0x08004B70) -- Data:  FC F7 26 FE 41 F6 1F 41 63 20 FD F7 99 FF 4F F4 ...  returns 0x00 (0002ms, 0662ms total)
T2410 008:974 JLINK_SetBPEx(Addr = 0x08004B74, Type = 0xFFFFFFF2)  returns 0x0000000F (0000ms, 0664ms total)
T2410 008:974 JLINK_SetBPEx(Addr = 0x08004B9A, Type = 0xFFFFFFF2)  returns 0x00000010 (0000ms, 0664ms total)
T2410 008:974 JLINK_Go() -- CPU_WriteMem(4 bytes @ 0xE0002008) -- CPU_WriteMem(4 bytes @ 0xE000200C) -- CPU_WriteMem(4 bytes @ 0xE0002010) -- CPU_WriteMem(4 bytes @ 0xE0002014) -- CPU_WriteMem(4 bytes @ 0xE0002018) -- CPU_WriteMem(4 bytes @ 0xE000201C) (0005ms, 0664ms total)
T2410 009:080 JLINK_IsHalted()  returns TRUE (0003ms, 0669ms total)
T2410 009:083 JLINK_Halt()  returns 0x00 (0000ms, 0669ms total)
T2410 009:083 JLINK_IsHalted()  returns TRUE (0000ms, 0669ms total)
T2410 009:083 JLINK_IsHalted()  returns TRUE (0000ms, 0669ms total)
T2410 009:084 JLINK_IsHalted()  returns TRUE (0000ms, 0669ms total)
T2410 009:084 JLINK_ReadReg(R15)  returns 0x08004B74 (0000ms, 0669ms total)
T2410 009:084 JLINK_ReadReg(XPSR)  returns 0x01000000 (0000ms, 0669ms total)
T2410 009:084 JLINK_ClrBPEx(BPHandle = 0x0000000F)  returns 0x00 (0000ms, 0669ms total)
T2410 009:084 JLINK_ClrBPEx(BPHandle = 0x00000010)  returns 0x00 (0000ms, 0669ms total)
T2410 009:084 JLINK_ReadMemU32(0xE000ED30, 0x0001 Items, ...) -- CPU_ReadMem(4 bytes @ 0xE000ED30) -- Data:  03 00 00 00  returns 0x01 (0000ms, 0669ms total)
T2410 009:084 JLINK_ReadMemU32(0xE0001028, 0x0001 Items, ...) -- CPU_ReadMem(4 bytes @ 0xE0001028) -- Data:  01 00 00 40  returns 0x01 (0001ms, 0669ms total)
T2410 009:085 JLINK_ReadMemU32(0xE0001038, 0x0001 Items, ...) -- CPU_ReadMem(4 bytes @ 0xE0001038) -- Data:  01 00 00 40  returns 0x01 (0001ms, 0670ms total)
T2410 009:086 JLINK_ReadMemU32(0xE0001048, 0x0001 Items, ...) -- CPU_ReadMem(4 bytes @ 0xE0001048) -- Data:  01 00 00 40  returns 0x01 (0000ms, 0671ms total)
T2410 009:086 JLINK_ReadMemU32(0xE0001058, 0x0001 Items, ...) -- CPU_ReadMem(4 bytes @ 0xE0001058) -- Data:  01 00 00 40  returns 0x01 (0001ms, 0671ms total)
T2410 009:087 JLINK_ReadReg(R0)  returns 0x00000001 (0000ms, 0672ms total)
T2410 009:087 JLINK_ReadReg(R1)  returns 0x4221019C (0000ms, 0672ms total)
T2410 009:087 JLINK_ReadReg(R2)  returns 0x40010800 (0000ms, 0672ms total)
T2410 009:087 JLINK_ReadReg(R3)  returns 0x10030080 (0000ms, 0672ms total)
T2410 009:087 JLINK_ReadReg(R4)  returns 0x00000000 (0000ms, 0672ms total)
T2410 009:087 JLINK_ReadReg(R5)  returns 0x20009264 (0000ms, 0672ms total)
T2410 009:087 JLINK_ReadReg(R6)  returns 0x00000000 (0000ms, 0672ms total)
T2410 009:087 JLINK_ReadReg(R7)  returns 0x00000000 (0000ms, 0672ms total)
T2410 009:087 JLINK_ReadReg(R8)  returns 0x00000000 (0000ms, 0672ms total)
T2410 009:087 JLINK_ReadReg(R9)  returns 0xA5A5A5A5 (0000ms, 0672ms total)
T2410 009:087 JLINK_ReadReg(R10)  returns 0x08005F68 (0000ms, 0672ms total)
T2410 009:087 JLINK_ReadReg(R11)  returns 0x00000000 (0000ms, 0672ms total)
T2410 009:087 JLINK_ReadReg(R12)  returns 0x00000080 (0000ms, 0672ms total)
T2410 009:087 JLINK_ReadReg(R13)  returns 0x2000AAC8 (0000ms, 0672ms total)
T2410 009:087 JLINK_ReadReg(R14)  returns 0x080017E5 (0000ms, 0672ms total)
T2410 009:087 JLINK_ReadReg(R15)  returns 0x08004B74 (0000ms, 0672ms total)
T2410 009:087 JLINK_ReadReg(XPSR)  returns 0x01000000 (0000ms, 0672ms total)
T2410 009:087 JLINK_ReadReg(MSP)  returns 0x2000AAC8 (0000ms, 0672ms total)
T2410 009:087 JLINK_ReadReg(PSP)  returns 0x20005628 (0000ms, 0672ms total)
T2410 009:087 JLINK_ReadReg(CFBP)  returns 0x00000001 (0000ms, 0672ms total)
T23F8 009:087 JLINK_ReadMem (0x20000210, 0x0004 Bytes, ...) -- CPU_ReadMem(64 bytes @ 0x20000200) -- Updating C cache (64 bytes @ 0x20000200) -- Read from C cache (4 bytes @ 0x20000210) -- Data:  00 00 00 00  returns 0x00 (0001ms, 0672ms total)
T23F8 009:088 JLINK_ReadMem (0x20000214, 0x0004 Bytes, ...) -- Read from C cache (4 bytes @ 0x20000214) -- Data:  00 00 00 00  returns 0x00 (0000ms, 0673ms total)
T23F8 009:088 JLINK_ReadMem (0x20000218, 0x0004 Bytes, ...) -- Read from C cache (4 bytes @ 0x20000218) -- Data:  00 00 00 00  returns 0x00 (0000ms, 0673ms total)
T23F8 009:088 JLINK_ReadMem (0x2000021C, 0x0004 Bytes, ...) -- Read from C cache (4 bytes @ 0x2000021C) -- Data:  75 56 6D 38  returns 0x00 (0000ms, 0673ms total)
T2410 009:311 JLINK_ReadMem (0x08004B74, 0x003C Bytes, ...) -- CPU_ReadMem(128 bytes @ 0x08004B40) -- Updating C cache (128 bytes @ 0x08004B40) -- Read from C cache (60 bytes @ 0x08004B74) -- Data:  41 F6 1F 41 63 20 FD F7 99 FF 4F F4 E1 30 FE F7 ...  returns 0x00 (0002ms, 0673ms total)
T2410 009:313 JLINK_Step() -- Read from C cache (2 bytes @ 0x08004B74) -- Not simulated -- CPU_WriteMem(4 bytes @ 0xE0002008) -- CPU_WriteMem(4 bytes @ 0xE000200C) -- CPU_WriteMem(4 bytes @ 0xE0002010) -- CPU_WriteMem(4 bytes @ 0xE0002014) -- CPU_WriteMem(4 bytes @ 0xE0002018) -- CPU_WriteMem(4 bytes @ 0xE000201C)  returns 0x00 (0008ms, 0675ms total)
T2410 009:321 JLINK_ReadReg(R15)  returns 0x08004B78 (0000ms, 0683ms total)
T2410 009:321 JLINK_ReadReg(XPSR)  returns 0x01000000 (0000ms, 0683ms total)
T2410 009:321 JLINK_Step() -- CPU_ReadMem(64 bytes @ 0x08004B40) -- Updating C cache (64 bytes @ 0x08004B40) -- Read from C cache (2 bytes @ 0x08004B78) -- Simulated  returns 0x00 (0001ms, 0683ms total)
T2410 009:322 JLINK_ReadReg(R15)  returns 0x08004B7A (0000ms, 0684ms total)
T2410 009:322 JLINK_ReadReg(XPSR)  returns 0x01000000 (0000ms, 0684ms total)
T2410 009:322 JLINK_SetBPEx(Addr = 0x08004B7E, Type = 0xFFFFFFF2)  returns 0x00000011 (0000ms, 0684ms total)
T2410 009:322 JLINK_SetBPEx(Addr = 0x08004B9A, Type = 0xFFFFFFF2)  returns 0x00000012 (0000ms, 0684ms total)
T2410 009:322 JLINK_Go() -- CPU_WriteMem(4 bytes @ 0xE0002008) -- CPU_WriteMem(4 bytes @ 0xE000200C) -- CPU_WriteMem(4 bytes @ 0xE0002010) -- CPU_WriteMem(4 bytes @ 0xE0002014) -- CPU_WriteMem(4 bytes @ 0xE0002018) -- CPU_WriteMem(4 bytes @ 0xE000201C) (0006ms, 0684ms total)
T2410 009:429 JLINK_IsHalted()  returns TRUE (0003ms, 0690ms total)
T2410 009:432 JLINK_Halt()  returns 0x00 (0000ms, 0690ms total)
T2410 009:432 JLINK_IsHalted()  returns TRUE (0000ms, 0690ms total)
T2410 009:432 JLINK_IsHalted()  returns TRUE (0000ms, 0690ms total)
T2410 009:432 JLINK_IsHalted()  returns TRUE (0000ms, 0690ms total)
T2410 009:432 JLINK_ReadReg(R15)  returns 0x08004B7E (0000ms, 0690ms total)
T2410 009:432 JLINK_ReadReg(XPSR)  returns 0x01000000 (0000ms, 0690ms total)
T2410 009:432 JLINK_ClrBPEx(BPHandle = 0x00000011)  returns 0x00 (0000ms, 0690ms total)
T2410 009:432 JLINK_ClrBPEx(BPHandle = 0x00000012)  returns 0x00 (0000ms, 0690ms total)
T2410 009:432 JLINK_ReadMemU32(0xE000ED30, 0x0001 Items, ...) -- CPU_ReadMem(4 bytes @ 0xE000ED30) -- Data:  03 00 00 00  returns 0x01 (0001ms, 0690ms total)
T2410 009:433 JLINK_ReadMemU32(0xE0001028, 0x0001 Items, ...) -- CPU_ReadMem(4 bytes @ 0xE0001028) -- Data:  01 00 00 40  returns 0x01 (0001ms, 0691ms total)
T2410 009:434 JLINK_ReadMemU32(0xE0001038, 0x0001 Items, ...) -- CPU_ReadMem(4 bytes @ 0xE0001038) -- Data:  01 00 00 40  returns 0x01 (0000ms, 0692ms total)
T2410 009:434 JLINK_ReadMemU32(0xE0001048, 0x0001 Items, ...) -- CPU_ReadMem(4 bytes @ 0xE0001048) -- Data:  01 00 00 40  returns 0x01 (0001ms, 0692ms total)
T2410 009:435 JLINK_ReadMemU32(0xE0001058, 0x0001 Items, ...) -- CPU_ReadMem(4 bytes @ 0xE0001058) -- Data:  01 00 00 40  returns 0x01 (0000ms, 0693ms total)
T2410 009:436 JLINK_ReadReg(R0)  returns 0x40000000 (0000ms, 0693ms total)
T2410 009:436 JLINK_ReadReg(R1)  returns 0x00001C1F (0000ms, 0693ms total)
T2410 009:436 JLINK_ReadReg(R2)  returns 0x00000063 (0000ms, 0693ms total)
T2410 009:436 JLINK_ReadReg(R3)  returns 0x10030080 (0000ms, 0693ms total)
